
T12BC 000:598 SEGGER J-Link V4.40b Log File (0001ms, 0598ms total)
T12BC 000:598 DLL Compiled: Dec 22 2011 10:54:45 (0001ms, 0598ms total)
T12BC 000:598 Logging started @ 2020-07-08 14:04 (0001ms, 0598ms total)
T12BC 000:599 JLINK_SetWarnOutHandler(...) (0000ms, 0599ms total)
T12BC 000:599 JLINK_OpenEx(...)
Firmware: J-Link V9 compiled Oct 25 2018 11:46:07
Hardware: V9.60
S/N: 69613334
Feature(s): RDI, GDB, FlashDL, FlashBP, JFlash  returns O.K. (0322ms, 0599ms total)
T12BC 000:921 JLINK_SetErrorOutHandler(...) (0000ms, 0921ms total)
T12BC 000:921 JLINK_ExecCommand("ProjectFile = "E:\Git\english version\STM32程序移植\例程6-删减工程找问题-1\KeilMDK\JLinkSettings.ini"", ...)  returns 0x00 (0000ms, 0921ms total)
T12BC 000:921 JLINK_ExecCommand("Device = STM32F103RC", ...)
                JLINK_ExecCommand("map ram 0x20000000 - 0x2000BFFF", ...)  returns 0x00 (0000ms, 0000ms total)
                JLINK_AddMirrorAreaEx(Addr = 0x00000000, Size = 0x00000000) (0000ms, 0000ms total)
              Device "STM32F103RC" selected (256 KB flash, 48 KB RAM).  returns 0x00 (0001ms, 0921ms total)
T12BC 000:923 JLINK_ExecCommand("DisableConnectionTimeout", ...)  returns 0x00 (0000ms, 0922ms total)
T12BC 000:924 JLINK_GetHardwareVersion()  returns 0x17700 (0000ms, 0922ms total)
T12BC 000:924 JLINK_GetDLLVersion()  returns 44002 (0000ms, 0922ms total)
T12BC 000:924 JLINK_GetFirmwareString(...) (0000ms, 0922ms total)
T12BC 000:928 JLINK_GetDLLVersion()  returns 44002 (0000ms, 0922ms total)
T12BC 000:928 JLINK_GetCompileDateTime() (0000ms, 0922ms total)
T12BC 000:929 JLINK_GetFirmwareString(...) (0000ms, 0922ms total)
T12BC 000:930 JLINK_GetHardwareVersion()  returns 0x17700 (0000ms, 0922ms total)
T12BC 000:933 JLINK_TIF_Select(JLINKARM_TIF_SWD)  returns 0x00 (0000ms, 0922ms total)
T12BC 000:933 JLINK_SetSpeed(1000) (0000ms, 0922ms total)
T12BC 000:933 JLINK_GetId() >0x108 TIF>Found SWD-DP with ID 0x1BA01477 >0x33 TIF> >0x33 TIF> >0x35 TIF> >0x33 TIF> >0x35 TIF> >0x33 TIF> >0x33 TIF> >0x35 TIF> >0x33 TIF> >0x33 TIF> >0x35 TIF> >0x33 TIF> >0x33 TIF> >0x35 TIF> >0x33 TIF> >0x33 TIF> >0x35 TIF> >0x35 TIF> >0x35 TIF> >0x35 TIF> >0x35 TIF> >0x33 TIF> >0x33 TIF> >0x35 TIF> >0x33 TIF> >0x33 TIF> >0x33 TIF>TPIU fitted.ETM fitted. >0x35 TIF> >0x33 TIF> >0x33 TIF> >0x35 TIF> >0x33 TIF> >0x33 TIF>  FPUnit: 6 code (BP) slots and 2 literal slots
 >0x35 TIF> >0x33 TIF> >0x33 TIF> >0x35 TIF> >0x35 TIF> >0x35 TIF> >0x33 TIF> >0x33 TIF> >0x35 TIF> >0x33 TIF> >0x33 TIF> >0x35 TIF> >0x33 TIF> >0x33 TIF>Found Cortex-M3 r1p1, Little endian. >0x33 TIF>  returns 0x1BA01477 (0012ms, 0922ms total)
T12BC 000:945 JLINK_GetDeviceFamily()  returns 3 (0000ms, 0934ms total)
T12BC 000:946 JLINK_ReadMem (0xE00FFFF0, 0x0010 Bytes, ...) -- CPU is running -- CPU_ReadMem(16 bytes @ 0xE00FFFF0) -- Data:  0D 00 00 00 10 00 00 00 05 00 00 00 B1 00 00 00  returns 0x00 (0000ms, 0934ms total)
T12BC 000:946 JLINK_ReadMem (0xE00FFFD0, 0x0020 Bytes, ...) -- CPU is running -- CPU_ReadMem(32 bytes @ 0xE00FFFD0) -- Data:  00 00 00 00 00 00 00 00 00 00 00 00 00 00 00 00 ...  returns 0x00 (0001ms, 0934ms total)
T12BC 000:947 JLINK_ReadMem (0xE00FF000, 0x0018 Bytes, ...) -- CPU is running -- CPU_ReadMem(24 bytes @ 0xE00FF000) -- Data:  03 F0 F0 FF 03 20 F0 FF 03 30 F0 FF 03 10 F0 FF ...  returns 0x00 (0001ms, 0935ms total)
T12BC 000:948 JLINK_ReadMemU32(0xE000ED00, 0x0001 Items, ...) -- CPU is running -- CPU_ReadMem(4 bytes @ 0xE000ED00) -- Data:  31 C2 1F 41  returns 0x01 (0001ms, 0936ms total)
T12BC 000:949 JLINK_SetResetType(JLINKARM_RESET_TYPE_NORMAL)  returns JLINKARM_RESET_TYPE_NORMAL (0000ms, 0937ms total)
T12BC 000:949 JLINK_Reset() >0x108 TIF>Found SWD-DP with ID 0x1BA01477 >0x33 TIF> >0x33 TIF> >0x35 TIF> >0x33 TIF> >0x35 TIF> >0x33 TIF> >0x33 TIF> >0x35 TIF> >0x33 TIF> >0x33 TIF> >0x35 TIF> >0x33 TIF> >0x33 TIF> >0x35 TIF> >0x33 TIF> >0x33 TIF> >0x35 TIF> >0x35 TIF> >0x35 TIF> >0x35 TIF> >0x35 TIF> >0x33 TIF> >0x33 TIF> >0x35 TIF> >0x33 TIF> >0x33 TIF> >0x33 TIF>TPIU fitted.ETM fitted. >0x35 TIF> >0x33 TIF> >0x33 TIF> >0x35 TIF> >0x33 TIF> >0x33 TIF>  FPUnit: 6 code (BP) slots and 2 literal slots
 >0x35 TIF> >0x33 TIF> >0x33 TIF> >0x35 TIF> >0x33 TIF> >0x33 TIF> >0x35 TIF> >0x33 TIF> >0x33 TIF> >0x35 TIF> >0x33 TIF> >0x33 TIF>Found Cortex-M3 r1p1, Little endian. -- CPU is running -- CPU_WriteMem(4 bytes @ 0xE000EDF0) -- CPU is running -- CPU_WriteMem(4 bytes @ 0xE000EDFC) >0x35 TIF> -- CPU is running -- CPU_WriteMem(4 bytes @ 0xE000ED0C) -- CPU is running -- CPU_ReadMem(4 bytes @ 0xE000EDF0) -- CPU is running -- CPU_ReadMem(4 bytes @ 0xE000EDF0) -- CPU is running
 -- CPU_WriteMem(4 bytes @ 0xE000EDF0) -- CPU is running -- CPU_WriteMem(4 bytes @ 0xE000EDFC) -- CPU is running -- CPU_ReadMem(4 bytes @ 0xE000EDF0) (0029ms, 0937ms total)
T12BC 000:978 JLINK_ReadReg(R15)  returns 0x080003B0 (0000ms, 0966ms total)
T12BC 000:978 JLINK_ReadReg(XPSR)  returns 0x01000000 (0000ms, 0966ms total)
T12BC 000:978 JLINK_Halt()  returns 0x00 (0001ms, 0966ms total)
T12BC 000:979 JLINK_IsHalted()  returns TRUE (0000ms, 0967ms total)
T12BC 000:979 JLINK_ReadMemU32(0xE000EDF0, 0x0001 Items, ...) -- CPU_ReadMem(4 bytes @ 0xE000EDF0) -- Data:  03 00 03 00  returns 0x01 (0000ms, 0967ms total)
T12BC 000:979 JLINK_WriteU32(0xE000EDF0, 0xA05F0003) -- CPU_WriteMem(4 bytes @ 0xE000EDF0)  returns 0x00 (0001ms, 0967ms total)
T12BC 000:980 JLINK_WriteU32(0xE000EDFC, 0x01000000) -- CPU_WriteMem(4 bytes @ 0xE000EDFC)  returns 0x00 (0000ms, 0968ms total)
T12BC 000:981 JLINK_GetHWStatus(...)  returns 0x00 (0000ms, 0968ms total)
T12BC 000:981 JLINK_GetNumBPUnits(Type = 0xFFFFFF00)  returns 0x06 (0000ms, 0968ms total)
T12BC 000:981 JLINK_GetNumBPUnits(Type = 0xF0)  returns 0x2000 (0000ms, 0968ms total)
T12BC 000:981 JLINK_GetNumWPUnits()  returns 0x04 (0000ms, 0968ms total)
T12BC 000:982 JLINK_GetSpeed()  returns 0x3E8 (0000ms, 0968ms total)
T12BC 000:982 JLINK_ReadMemU32(0xE000E004, 0x0001 Items, ...) -- CPU_ReadMem(4 bytes @ 0xE000E004) -- Data:  01 00 00 00  returns 0x01 (0001ms, 0968ms total)
T12BC 000:983 JLINK_ReadMemU32(0xE000E004, 0x0001 Items, ...) -- CPU_ReadMem(4 bytes @ 0xE000E004) -- Data:  01 00 00 00  returns 0x01 (0000ms, 0969ms total)
T12BC 000:983 JLINK_WriteMem(0xE0001000, 0x001C Bytes, ...) -- Data:  01 00 00 00 00 00 00 00 00 00 00 00 00 00 00 00 ... -- CPU_WriteMem(28 bytes @ 0xE0001000)  returns 0x1C (0001ms, 0969ms total)
T12BC 000:984 JLINK_ReadMem (0xE0001000, 0x001C Bytes, ...) -- CPU_ReadMem(28 bytes @ 0xE0001000) -- Data:  01 00 00 40 00 00 00 00 00 00 00 00 00 00 00 00 ...  returns 0x00 (0001ms, 0970ms total)
T12BC 000:985 JLINK_ReadReg(R15)  returns 0x080003B0 (0000ms, 0971ms total)
T12BC 000:985 JLINK_ReadReg(XPSR)  returns 0x01000000 (0000ms, 0971ms total)
T12BC 001:056 JLINK_SetResetType(JLINKARM_RESET_TYPE_NORMAL)  returns JLINKARM_RESET_TYPE_NORMAL (0000ms, 0971ms total)
T12BC 001:056 JLINK_Reset() >0x108 TIF>Found SWD-DP with ID 0x1BA01477 >0x33 TIF> >0x33 TIF> >0x35 TIF> >0x33 TIF> >0x35 TIF> >0x33 TIF> >0x33 TIF> >0x35 TIF> >0x33 TIF> >0x33 TIF> >0x35 TIF> >0x33 TIF> >0x33 TIF> >0x35 TIF> >0x33 TIF> >0x33 TIF> >0x35 TIF> >0x35 TIF> >0x35 TIF> >0x35 TIF> >0x35 TIF> >0x33 TIF> >0x33 TIF> >0x35 TIF> >0x33 TIF> >0x33 TIF> >0x33 TIF>TPIU fitted.ETM fitted. >0x35 TIF> >0x33 TIF> >0x33 TIF> >0x35 TIF> >0x33 TIF> >0x33 TIF>  FPUnit: 6 code (BP) slots and 2 literal slots
 >0x35 TIF> >0x33 TIF> >0x33 TIF> >0x35 TIF> >0x33 TIF> >0x33 TIF> >0x35 TIF> >0x33 TIF> >0x33 TIF> >0x35 TIF> >0x33 TIF> >0x33 TIF>Found Cortex-M3 r1p1, Little endian. -- CPU_WriteMem(4 bytes @ 0xE000EDF0) -- CPU_WriteMem(4 bytes @ 0xE000EDFC) >0x35 TIF> -- CPU_WriteMem(4 bytes @ 0xE000ED0C) -- CPU_ReadMem(4 bytes @ 0xE000EDF0) -- CPU_ReadMem(4 bytes @ 0xE000EDF0) -- CPU_ReadMem(4 bytes @ 0xE000EDF0) -- CPU_WriteMem(4 bytes @ 0xE000EDF0) -- CPU_WriteMem(4 bytes @ 0xE000EDFC) -- CPU is running
 -- CPU_ReadMem(4 bytes @ 0xE000EDF0) (0030ms, 0971ms total)
T12BC 001:086 JLINK_ReadReg(R15)  returns 0x080003B0 (0000ms, 1001ms total)
T12BC 001:086 JLINK_ReadReg(XPSR)  returns 0x01000000 (0000ms, 1001ms total)
T12BC 001:086 JLINK_ReadMem (0x080003B0, 0x003C Bytes, ...) -- CPU_ReadMem(128 bytes @ 0x08000380) -- Updating C cache (128 bytes @ 0x08000380) -- Read from C cache (60 bytes @ 0x080003B0) -- Data:  09 48 80 47 09 48 00 47 FE E7 FE E7 FE E7 FE E7 ...  returns 0x00 (0003ms, 1001ms total)
T3C40 003:190 JLINK_SetBPEx(Addr = 0x08000BEC, Type = 0xFFFFFFF2)  returns 0x00000001 (0000ms, 1004ms total)
T3C40 003:190 JLINK_Go() -- CPU_WriteMem(4 bytes @ 0xE0002000) -- CPU_WriteMem(4 bytes @ 0xE0002008) -- CPU_WriteMem(4 bytes @ 0xE000200C) -- CPU_WriteMem(4 bytes @ 0xE0002010) -- CPU_WriteMem(4 bytes @ 0xE0002014) -- CPU_WriteMem(4 bytes @ 0xE0002018) -- CPU_WriteMem(4 bytes @ 0xE000201C) (0006ms, 1004ms total)
T3C40 003:298 JLINK_IsHalted()  returns TRUE (0006ms, 1010ms total)
T3C40 003:304 JLINK_Halt()  returns 0x00 (0000ms, 1010ms total)
T3C40 003:304 JLINK_IsHalted()  returns TRUE (0000ms, 1010ms total)
T3C40 003:304 JLINK_IsHalted()  returns TRUE (0000ms, 1010ms total)
T3C40 003:304 JLINK_IsHalted()  returns TRUE (0000ms, 1010ms total)
T3C40 003:304 JLINK_ReadReg(R15)  returns 0x08000BEC (0000ms, 1010ms total)
T3C40 003:304 JLINK_ReadReg(XPSR)  returns 0x21000000 (0000ms, 1010ms total)
T3C40 003:304 JLINK_ClrBPEx(BPHandle = 0x00000001)  returns 0x00 (0000ms, 1010ms total)
T3C40 003:304 JLINK_ReadMemU32(0xE000ED30, 0x0001 Items, ...) -- CPU_ReadMem(4 bytes @ 0xE000ED30) -- Data:  02 00 00 00  returns 0x01 (0001ms, 1010ms total)
T3C40 003:305 JLINK_ReadMemU32(0xE0001028, 0x0001 Items, ...) -- CPU_ReadMem(4 bytes @ 0xE0001028) -- Data:  01 00 00 40  returns 0x01 (0000ms, 1011ms total)
T3C40 003:306 JLINK_ReadMemU32(0xE0001038, 0x0001 Items, ...) -- CPU_ReadMem(4 bytes @ 0xE0001038) -- Data:  01 00 00 40  returns 0x01 (0000ms, 1011ms total)
T3C40 003:306 JLINK_ReadMemU32(0xE0001048, 0x0001 Items, ...) -- CPU_ReadMem(4 bytes @ 0xE0001048) -- Data:  01 00 00 40  returns 0x01 (0001ms, 1011ms total)
T3C40 003:307 JLINK_ReadMemU32(0xE0001058, 0x0001 Items, ...) -- CPU_ReadMem(4 bytes @ 0xE0001058) -- Data:  01 00 00 40  returns 0x01 (0000ms, 1012ms total)
T3C40 003:307 JLINK_ReadReg(R0)  returns 0x20000098 (0000ms, 1012ms total)
T3C40 003:307 JLINK_ReadReg(R1)  returns 0x20000298 (0000ms, 1012ms total)
T3C40 003:307 JLINK_ReadReg(R2)  returns 0x20000298 (0000ms, 1012ms total)
T3C40 003:307 JLINK_ReadReg(R3)  returns 0x20000298 (0000ms, 1012ms total)
T3C40 003:308 JLINK_ReadReg(R4)  returns 0x00000000 (0000ms, 1012ms total)
T3C40 003:308 JLINK_ReadReg(R5)  returns 0x20000034 (0000ms, 1012ms total)
T3C40 003:308 JLINK_ReadReg(R6)  returns 0x00000000 (0000ms, 1012ms total)
T3C40 003:308 JLINK_ReadReg(R7)  returns 0x00000000 (0000ms, 1012ms total)
T3C40 003:308 JLINK_ReadReg(R8)  returns 0x00000000 (0000ms, 1012ms total)
T3C40 003:308 JLINK_ReadReg(R9)  returns 0x20000160 (0000ms, 1012ms total)
T3C40 003:308 JLINK_ReadReg(R10)  returns 0x08000CAC (0000ms, 1012ms total)
T3C40 003:308 JLINK_ReadReg(R11)  returns 0x00000000 (0000ms, 1012ms total)
T3C40 003:308 JLINK_ReadReg(R12)  returns 0x20000074 (0000ms, 1012ms total)
T3C40 003:308 JLINK_ReadReg(R13)  returns 0x20000698 (0000ms, 1012ms total)
T3C40 003:308 JLINK_ReadReg(R14)  returns 0x080001BB (0000ms, 1012ms total)
T3C40 003:308 JLINK_ReadReg(R15)  returns 0x08000BEC (0000ms, 1012ms total)
T3C40 003:308 JLINK_ReadReg(XPSR)  returns 0x21000000 (0000ms, 1012ms total)
T3C40 003:308 JLINK_ReadReg(MSP)  returns 0x20000698 (0000ms, 1012ms total)
T3C40 003:308 JLINK_ReadReg(PSP)  returns 0x20000800 (0000ms, 1012ms total)
T3C40 003:308 JLINK_ReadReg(CFBP)  returns 0x00000000 (0000ms, 1012ms total)
T12BC 003:313 JLINK_ReadMem (0x08000BEC, 0x003C Bytes, ...) -- CPU_ReadMem(128 bytes @ 0x08000BC0) -- Updating C cache (128 bytes @ 0x08000BC0) -- Read from C cache (60 bytes @ 0x08000BEC) -- Data:  FF F7 D0 FF 0F E0 80 21 07 48 FF F7 08 FD 4F F4 ...  returns 0x00 (0002ms, 1012ms total)
T3C40 009:700 JLINK_Step() -- Read from C cache (2 bytes @ 0x08000BEC) -- Not simulated -- CPU_WriteMem(4 bytes @ 0xE0002008) -- CPU_WriteMem(4 bytes @ 0xE000200C) -- CPU_WriteMem(4 bytes @ 0xE0002010) -- CPU_WriteMem(4 bytes @ 0xE0002014) -- CPU_WriteMem(4 bytes @ 0xE0002018) -- CPU_WriteMem(4 bytes @ 0xE000201C)  returns 0x00 (0012ms, 1014ms total)
T3C40 009:712 JLINK_ReadReg(R15)  returns 0x08000B90 (0000ms, 1026ms total)
T3C40 009:712 JLINK_ReadReg(XPSR)  returns 0x21000000 (0000ms, 1026ms total)
T3C40 009:712 JLINK_ReadReg(R0)  returns 0x20000098 (0000ms, 1026ms total)
T3C40 009:712 JLINK_ReadReg(R1)  returns 0x20000298 (0000ms, 1026ms total)
T3C40 009:712 JLINK_ReadReg(R2)  returns 0x20000298 (0000ms, 1026ms total)
T3C40 009:712 JLINK_ReadReg(R3)  returns 0x20000298 (0000ms, 1026ms total)
T3C40 009:712 JLINK_ReadReg(R4)  returns 0x00000000 (0000ms, 1026ms total)
T3C40 009:712 JLINK_ReadReg(R5)  returns 0x20000034 (0000ms, 1026ms total)
T3C40 009:712 JLINK_ReadReg(R6)  returns 0x00000000 (0000ms, 1026ms total)
T3C40 009:712 JLINK_ReadReg(R7)  returns 0x00000000 (0000ms, 1026ms total)
T3C40 009:712 JLINK_ReadReg(R8)  returns 0x00000000 (0000ms, 1026ms total)
T3C40 009:712 JLINK_ReadReg(R9)  returns 0x20000160 (0000ms, 1026ms total)
T3C40 009:712 JLINK_ReadReg(R10)  returns 0x08000CAC (0001ms, 1026ms total)
T3C40 009:713 JLINK_ReadReg(R11)  returns 0x00000000 (0000ms, 1027ms total)
T3C40 009:713 JLINK_ReadReg(R12)  returns 0x20000074 (0000ms, 1027ms total)
T3C40 009:713 JLINK_ReadReg(R13)  returns 0x20000698 (0000ms, 1027ms total)
T3C40 009:713 JLINK_ReadReg(R14)  returns 0x08000BF1 (0000ms, 1027ms total)
T3C40 009:713 JLINK_ReadReg(R15)  returns 0x08000B90 (0000ms, 1027ms total)
T3C40 009:713 JLINK_ReadReg(XPSR)  returns 0x21000000 (0000ms, 1027ms total)
T3C40 009:713 JLINK_ReadReg(MSP)  returns 0x20000698 (0000ms, 1027ms total)
T3C40 009:713 JLINK_ReadReg(PSP)  returns 0x20000800 (0000ms, 1027ms total)
T3C40 009:713 JLINK_ReadReg(CFBP)  returns 0x00000000 (0000ms, 1027ms total)
T12BC 009:723 JLINK_ReadMem (0x08000B90, 0x003C Bytes, ...) -- CPU_ReadMem(128 bytes @ 0x08000B80) -- Updating C cache (128 bytes @ 0x08000B80) -- Read from C cache (60 bytes @ 0x08000B90) -- Data:  08 B5 01 21 08 20 FF F7 41 FF 03 20 8D F8 02 00 ...  returns 0x00 (0002ms, 1027ms total)
T3C40 013:484 JLINK_Step() -- Read from C cache (2 bytes @ 0x08000B90) -- Not simulated -- CPU_WriteMem(4 bytes @ 0xE0002008) -- CPU_WriteMem(4 bytes @ 0xE000200C) -- CPU_WriteMem(4 bytes @ 0xE0002010) -- CPU_WriteMem(4 bytes @ 0xE0002014) -- CPU_WriteMem(4 bytes @ 0xE0002018) -- CPU_WriteMem(4 bytes @ 0xE000201C)  returns 0x00 (0012ms, 1029ms total)
T3C40 013:496 JLINK_ReadReg(R15)  returns 0x08000B92 (0001ms, 1041ms total)
T3C40 013:497 JLINK_ReadReg(XPSR)  returns 0x21000000 (0000ms, 1042ms total)
T3C40 013:497 JLINK_ReadReg(R0)  returns 0x20000098 (0000ms, 1042ms total)
T3C40 013:497 JLINK_ReadReg(R1)  returns 0x20000298 (0000ms, 1042ms total)
T3C40 013:497 JLINK_ReadReg(R2)  returns 0x20000298 (0000ms, 1042ms total)
T3C40 013:497 JLINK_ReadReg(R3)  returns 0x20000298 (0000ms, 1042ms total)
T3C40 013:497 JLINK_ReadReg(R4)  returns 0x00000000 (0000ms, 1042ms total)
T3C40 013:497 JLINK_ReadReg(R5)  returns 0x20000034 (0000ms, 1042ms total)
T3C40 013:497 JLINK_ReadReg(R6)  returns 0x00000000 (0000ms, 1042ms total)
T3C40 013:497 JLINK_ReadReg(R7)  returns 0x00000000 (0000ms, 1042ms total)
T3C40 013:497 JLINK_ReadReg(R8)  returns 0x00000000 (0000ms, 1042ms total)
T3C40 013:497 JLINK_ReadReg(R9)  returns 0x20000160 (0000ms, 1042ms total)
T3C40 013:497 JLINK_ReadReg(R10)  returns 0x08000CAC (0000ms, 1042ms total)
T3C40 013:497 JLINK_ReadReg(R11)  returns 0x00000000 (0000ms, 1042ms total)
T3C40 013:497 JLINK_ReadReg(R12)  returns 0x20000074 (0000ms, 1042ms total)
T3C40 013:497 JLINK_ReadReg(R13)  returns 0x20000690 (0000ms, 1042ms total)
T3C40 013:497 JLINK_ReadReg(R14)  returns 0x08000BF1 (0000ms, 1042ms total)
T3C40 013:497 JLINK_ReadReg(R15)  returns 0x08000B92 (0000ms, 1042ms total)
T3C40 013:497 JLINK_ReadReg(XPSR)  returns 0x21000000 (0000ms, 1042ms total)
T3C40 013:497 JLINK_ReadReg(MSP)  returns 0x20000690 (0000ms, 1042ms total)
T3C40 013:497 JLINK_ReadReg(PSP)  returns 0x20000800 (0000ms, 1042ms total)
T3C40 013:497 JLINK_ReadReg(CFBP)  returns 0x00000000 (0000ms, 1042ms total)
T12BC 013:497 JLINK_ReadMem (0x20000694, 0x0004 Bytes, ...) -- CPU_ReadMem(64 bytes @ 0x20000680) -- Updating C cache (64 bytes @ 0x20000680) -- Read from C cache (4 bytes @ 0x20000694) -- Data:  F1 0B 00 08  returns 0x00 (0002ms, 1042ms total)
T12BC 013:499 JLINK_ReadMem (0x08000B92, 0x0002 Bytes, ...) -- CPU_ReadMem(64 bytes @ 0x08000B80) -- Updating C cache (64 bytes @ 0x08000B80) -- Read from C cache (2 bytes @ 0x08000B92) -- Data:  01 21  returns 0x00 (0001ms, 1044ms total)
T12BC 013:500 JLINK_ReadMem (0x08000B94, 0x003C Bytes, ...) -- CPU_ReadMem(64 bytes @ 0x08000BC0) -- Updating C cache (64 bytes @ 0x08000BC0) -- Read from C cache (60 bytes @ 0x08000B94) -- Data:  08 20 FF F7 41 FF 03 20 8D F8 02 00 10 20 8D F8 ...  returns 0x00 (0002ms, 1045ms total)
T3C40 015:140 JLINK_Step() -- Read from C cache (2 bytes @ 0x08000B92) -- Simulated  returns 0x00 (0000ms, 1047ms total)
T3C40 015:140 JLINK_ReadReg(R15)  returns 0x08000B94 (0000ms, 1047ms total)
T3C40 015:140 JLINK_ReadReg(XPSR)  returns 0x21000000 (0000ms, 1047ms total)
T3C40 015:140 JLINK_Step() -- Read from C cache (2 bytes @ 0x08000B94) -- Simulated  returns 0x00 (0000ms, 1047ms total)
T3C40 015:141 JLINK_ReadReg(R15)  returns 0x08000B96 (0000ms, 1048ms total)
T3C40 015:141 JLINK_ReadReg(XPSR)  returns 0x21000000 (0000ms, 1048ms total)
T3C40 015:141 JLINK_Step() -- Read from C cache (2 bytes @ 0x08000B96) -- Not simulated -- CPU_WriteMem(4 bytes @ 0xE0002008) -- CPU_WriteMem(4 bytes @ 0xE000200C) -- CPU_WriteMem(4 bytes @ 0xE0002010) -- CPU_WriteMem(4 bytes @ 0xE0002014) -- CPU_WriteMem(4 bytes @ 0xE0002018) -- CPU_WriteMem(4 bytes @ 0xE000201C)  returns 0x00 (0012ms, 1048ms total)
T3C40 015:153 JLINK_ReadReg(R15)  returns 0x08000A1C (0000ms, 1060ms total)
T3C40 015:153 JLINK_ReadReg(XPSR)  returns 0x21000000 (0000ms, 1060ms total)
T3C40 015:153 JLINK_ReadReg(R0)  returns 0x00000008 (0000ms, 1060ms total)
T3C40 015:153 JLINK_ReadReg(R1)  returns 0x00000001 (0000ms, 1060ms total)
T3C40 015:153 JLINK_ReadReg(R2)  returns 0x20000298 (0000ms, 1060ms total)
T3C40 015:153 JLINK_ReadReg(R3)  returns 0x20000298 (0000ms, 1060ms total)
T3C40 015:154 JLINK_ReadReg(R4)  returns 0x00000000 (0000ms, 1061ms total)
T3C40 015:154 JLINK_ReadReg(R5)  returns 0x20000034 (0000ms, 1061ms total)
T3C40 015:154 JLINK_ReadReg(R6)  returns 0x00000000 (0000ms, 1061ms total)
T3C40 015:154 JLINK_ReadReg(R7)  returns 0x00000000 (0000ms, 1061ms total)
T3C40 015:154 JLINK_ReadReg(R8)  returns 0x00000000 (0000ms, 1061ms total)
T3C40 015:154 JLINK_ReadReg(R9)  returns 0x20000160 (0000ms, 1061ms total)
T3C40 015:154 JLINK_ReadReg(R10)  returns 0x08000CAC (0000ms, 1061ms total)
T3C40 015:154 JLINK_ReadReg(R11)  returns 0x00000000 (0000ms, 1061ms total)
T3C40 015:154 JLINK_ReadReg(R12)  returns 0x20000074 (0000ms, 1061ms total)
T3C40 015:154 JLINK_ReadReg(R13)  returns 0x20000690 (0000ms, 1061ms total)
T3C40 015:154 JLINK_ReadReg(R14)  returns 0x08000B9B (0000ms, 1061ms total)
T3C40 015:154 JLINK_ReadReg(R15)  returns 0x08000A1C (0000ms, 1061ms total)
T3C40 015:154 JLINK_ReadReg(XPSR)  returns 0x21000000 (0000ms, 1061ms total)
T3C40 015:154 JLINK_ReadReg(MSP)  returns 0x20000690 (0000ms, 1061ms total)
T3C40 015:154 JLINK_ReadReg(PSP)  returns 0x20000800 (0000ms, 1061ms total)
T3C40 015:154 JLINK_ReadReg(CFBP)  returns 0x00000000 (0000ms, 1061ms total)
T12BC 015:154 JLINK_ReadMem (0x20000694, 0x0004 Bytes, ...) -- CPU_ReadMem(64 bytes @ 0x20000680) -- Updating C cache (64 bytes @ 0x20000680) -- Read from C cache (4 bytes @ 0x20000694) -- Data:  F1 0B 00 08  returns 0x00 (0002ms, 1061ms total)
T12BC 015:163 JLINK_ReadMem (0x08000A1C, 0x003C Bytes, ...) -- CPU_ReadMem(128 bytes @ 0x08000A00) -- Updating C cache (128 bytes @ 0x08000A00) -- Read from C cache (60 bytes @ 0x08000A1C) -- Data:  29 B1 28 4A 92 69 02 43 26 4B 9A 61 04 E0 25 4A ...  returns 0x00 (0002ms, 1063ms total)
T3C40 016:308 JLINK_Step() -- Read from C cache (2 bytes @ 0x08000A1C) -- Not simulated -- CPU_WriteMem(4 bytes @ 0xE0002008) -- CPU_WriteMem(4 bytes @ 0xE000200C) -- CPU_WriteMem(4 bytes @ 0xE0002010) -- CPU_WriteMem(4 bytes @ 0xE0002014) -- CPU_WriteMem(4 bytes @ 0xE0002018) -- CPU_WriteMem(4 bytes @ 0xE000201C)  returns 0x00 (0012ms, 1065ms total)
T3C40 016:320 JLINK_ReadReg(R15)  returns 0x08000A1E (0000ms, 1077ms total)
T3C40 016:320 JLINK_ReadReg(XPSR)  returns 0x21000000 (0000ms, 1077ms total)
T3C40 016:320 JLINK_ReadReg(R0)  returns 0x00000008 (0000ms, 1077ms total)
T3C40 016:320 JLINK_ReadReg(R1)  returns 0x00000001 (0000ms, 1077ms total)
T3C40 016:320 JLINK_ReadReg(R2)  returns 0x20000298 (0000ms, 1077ms total)
T3C40 016:320 JLINK_ReadReg(R3)  returns 0x20000298 (0000ms, 1077ms total)
T3C40 016:320 JLINK_ReadReg(R4)  returns 0x00000000 (0000ms, 1077ms total)
T3C40 016:320 JLINK_ReadReg(R5)  returns 0x20000034 (0000ms, 1077ms total)
T3C40 016:320 JLINK_ReadReg(R6)  returns 0x00000000 (0000ms, 1077ms total)
T3C40 016:320 JLINK_ReadReg(R7)  returns 0x00000000 (0000ms, 1077ms total)
T3C40 016:320 JLINK_ReadReg(R8)  returns 0x00000000 (0000ms, 1077ms total)
T3C40 016:320 JLINK_ReadReg(R9)  returns 0x20000160 (0000ms, 1077ms total)
T3C40 016:320 JLINK_ReadReg(R10)  returns 0x08000CAC (0000ms, 1077ms total)
T3C40 016:320 JLINK_ReadReg(R11)  returns 0x00000000 (0000ms, 1077ms total)
T3C40 016:320 JLINK_ReadReg(R12)  returns 0x20000074 (0000ms, 1077ms total)
T3C40 016:320 JLINK_ReadReg(R13)  returns 0x20000690 (0000ms, 1077ms total)
T3C40 016:320 JLINK_ReadReg(R14)  returns 0x08000B9B (0000ms, 1077ms total)
T3C40 016:320 JLINK_ReadReg(R15)  returns 0x08000A1E (0000ms, 1077ms total)
T3C40 016:320 JLINK_ReadReg(XPSR)  returns 0x21000000 (0000ms, 1077ms total)
T3C40 016:320 JLINK_ReadReg(MSP)  returns 0x20000690 (0000ms, 1077ms total)
T3C40 016:320 JLINK_ReadReg(PSP)  returns 0x20000800 (0000ms, 1077ms total)
T3C40 016:320 JLINK_ReadReg(CFBP)  returns 0x00000000 (0000ms, 1077ms total)
T12BC 016:320 JLINK_ReadMem (0x20000694, 0x0004 Bytes, ...) -- CPU_ReadMem(64 bytes @ 0x20000680) -- Updating C cache (64 bytes @ 0x20000680) -- Read from C cache (4 bytes @ 0x20000694) -- Data:  F1 0B 00 08  returns 0x00 (0002ms, 1077ms total)
T12BC 016:322 JLINK_ReadMem (0x08000A1E, 0x0002 Bytes, ...) -- CPU_ReadMem(64 bytes @ 0x08000A00) -- Updating C cache (64 bytes @ 0x08000A00) -- Read from C cache (2 bytes @ 0x08000A1E) -- Data:  28 4A  returns 0x00 (0002ms, 1079ms total)
T12BC 016:324 JLINK_ReadMem (0x08000A20, 0x003C Bytes, ...) -- CPU_ReadMem(64 bytes @ 0x08000A40) -- Updating C cache (64 bytes @ 0x08000A40) -- Read from C cache (60 bytes @ 0x08000A20) -- Data:  92 69 02 43 26 4B 9A 61 04 E0 25 4A 92 69 82 43 ...  returns 0x00 (0001ms, 1081ms total)
T3C40 016:756 JLINK_Step() -- Read from C cache (2 bytes @ 0x08000A1E) -- Not simulated -- CPU_WriteMem(4 bytes @ 0xE0002008) -- CPU_WriteMem(4 bytes @ 0xE000200C) -- CPU_WriteMem(4 bytes @ 0xE0002010) -- CPU_WriteMem(4 bytes @ 0xE0002014) -- CPU_WriteMem(4 bytes @ 0xE0002018) -- CPU_WriteMem(4 bytes @ 0xE000201C)  returns 0x00 (0011ms, 1082ms total)
T3C40 016:767 JLINK_ReadReg(R15)  returns 0x08000A20 (0000ms, 1093ms total)
T3C40 016:767 JLINK_ReadReg(XPSR)  returns 0x21000000 (0000ms, 1093ms total)
T3C40 016:767 JLINK_Step() -- CPU_ReadMem(64 bytes @ 0x08000A00) -- Updating C cache (64 bytes @ 0x08000A00) -- Read from C cache (2 bytes @ 0x08000A20) -- Not simulated -- CPU_WriteMem(4 bytes @ 0xE0002008) -- CPU_WriteMem(4 bytes @ 0xE000200C) -- CPU_WriteMem(4 bytes @ 0xE0002010) -- CPU_WriteMem(4 bytes @ 0xE0002014) -- CPU_WriteMem(4 bytes @ 0xE0002018) -- CPU_WriteMem(4 bytes @ 0xE000201C)  returns 0x00 (0013ms, 1093ms total)
T3C40 016:780 JLINK_ReadReg(R15)  returns 0x08000A22 (0000ms, 1106ms total)
T3C40 016:780 JLINK_ReadReg(XPSR)  returns 0x21000000 (0000ms, 1106ms total)
T3C40 016:780 JLINK_Step() -- CPU_ReadMem(64 bytes @ 0x08000A00) -- Updating C cache (64 bytes @ 0x08000A00) -- Read from C cache (2 bytes @ 0x08000A22) -- Not simulated -- CPU_WriteMem(4 bytes @ 0xE0002008) -- CPU_WriteMem(4 bytes @ 0xE000200C) -- CPU_WriteMem(4 bytes @ 0xE0002010) -- CPU_WriteMem(4 bytes @ 0xE0002014) -- CPU_WriteMem(4 bytes @ 0xE0002018) -- CPU_WriteMem(4 bytes @ 0xE000201C)  returns 0x00 (0013ms, 1106ms total)
T3C40 016:793 JLINK_ReadReg(R15)  returns 0x08000A24 (0000ms, 1119ms total)
T3C40 016:793 JLINK_ReadReg(XPSR)  returns 0x21000000 (0000ms, 1119ms total)
T3C40 016:793 JLINK_Step() -- CPU_ReadMem(64 bytes @ 0x08000A00) -- Updating C cache (64 bytes @ 0x08000A00) -- Read from C cache (2 bytes @ 0x08000A24) -- Not simulated -- CPU_WriteMem(4 bytes @ 0xE0002008) -- CPU_WriteMem(4 bytes @ 0xE000200C) -- CPU_WriteMem(4 bytes @ 0xE0002010) -- CPU_WriteMem(4 bytes @ 0xE0002014) -- CPU_WriteMem(4 bytes @ 0xE0002018) -- CPU_WriteMem(4 bytes @ 0xE000201C)  returns 0x00 (0013ms, 1119ms total)
T3C40 016:806 JLINK_ReadReg(R15)  returns 0x08000A26 (0000ms, 1132ms total)
T3C40 016:806 JLINK_ReadReg(XPSR)  returns 0x21000000 (0000ms, 1132ms total)
T3C40 016:806 JLINK_Step() -- CPU_ReadMem(64 bytes @ 0x08000A00) -- Updating C cache (64 bytes @ 0x08000A00) -- Read from C cache (2 bytes @ 0x08000A26) -- Not simulated -- CPU_WriteMem(4 bytes @ 0xE0002008) -- CPU_WriteMem(4 bytes @ 0xE000200C) -- CPU_WriteMem(4 bytes @ 0xE0002010) -- CPU_WriteMem(4 bytes @ 0xE0002014) -- CPU_WriteMem(4 bytes @ 0xE0002018) -- CPU_WriteMem(4 bytes @ 0xE000201C)  returns 0x00 (0012ms, 1132ms total)
T3C40 016:818 JLINK_ReadReg(R15)  returns 0x08000A28 (0001ms, 1144ms total)
T3C40 016:819 JLINK_ReadReg(XPSR)  returns 0x21000000 (0000ms, 1145ms total)
T3C40 016:819 JLINK_Step() -- CPU_ReadMem(64 bytes @ 0x08000A00) -- Updating C cache (64 bytes @ 0x08000A00) -- Read from C cache (2 bytes @ 0x08000A28) -- Not simulated -- CPU_WriteMem(4 bytes @ 0xE0002008) -- CPU_WriteMem(4 bytes @ 0xE000200C) -- CPU_WriteMem(4 bytes @ 0xE0002010) -- CPU_WriteMem(4 bytes @ 0xE0002014) -- CPU_WriteMem(4 bytes @ 0xE0002018) -- CPU_WriteMem(4 bytes @ 0xE000201C)  returns 0x00 (0013ms, 1145ms total)
T3C40 016:832 JLINK_ReadReg(R15)  returns 0x08000A34 (0000ms, 1158ms total)
T3C40 016:832 JLINK_ReadReg(XPSR)  returns 0x21000000 (0000ms, 1158ms total)
T3C40 016:832 JLINK_ReadReg(R0)  returns 0x00000008 (0000ms, 1158ms total)
T3C40 016:832 JLINK_ReadReg(R1)  returns 0x00000001 (0000ms, 1158ms total)
T3C40 016:832 JLINK_ReadReg(R2)  returns 0x00000008 (0000ms, 1158ms total)
T3C40 016:832 JLINK_ReadReg(R3)  returns 0x40021000 (0000ms, 1158ms total)
T3C40 016:832 JLINK_ReadReg(R4)  returns 0x00000000 (0000ms, 1158ms total)
T3C40 016:832 JLINK_ReadReg(R5)  returns 0x20000034 (0000ms, 1158ms total)
T3C40 016:832 JLINK_ReadReg(R6)  returns 0x00000000 (0000ms, 1158ms total)
T3C40 016:832 JLINK_ReadReg(R7)  returns 0x00000000 (0000ms, 1158ms total)
T3C40 016:832 JLINK_ReadReg(R8)  returns 0x00000000 (0000ms, 1158ms total)
T3C40 016:832 JLINK_ReadReg(R9)  returns 0x20000160 (0000ms, 1158ms total)
T3C40 016:832 JLINK_ReadReg(R10)  returns 0x08000CAC (0000ms, 1158ms total)
T3C40 016:832 JLINK_ReadReg(R11)  returns 0x00000000 (0000ms, 1158ms total)
T3C40 016:832 JLINK_ReadReg(R12)  returns 0x20000074 (0000ms, 1158ms total)
T3C40 016:832 JLINK_ReadReg(R13)  returns 0x20000690 (0000ms, 1158ms total)
T3C40 016:832 JLINK_ReadReg(R14)  returns 0x08000B9B (0000ms, 1158ms total)
T3C40 016:833 JLINK_ReadReg(R15)  returns 0x08000A34 (0000ms, 1159ms total)
T3C40 016:833 JLINK_ReadReg(XPSR)  returns 0x21000000 (0000ms, 1159ms total)
T3C40 016:833 JLINK_ReadReg(MSP)  returns 0x20000690 (0000ms, 1159ms total)
T3C40 016:833 JLINK_ReadReg(PSP)  returns 0x20000800 (0000ms, 1159ms total)
T3C40 016:833 JLINK_ReadReg(CFBP)  returns 0x00000000 (0000ms, 1159ms total)
T12BC 016:833 JLINK_ReadMem (0x20000694, 0x0004 Bytes, ...) -- CPU_ReadMem(64 bytes @ 0x20000680) -- Updating C cache (64 bytes @ 0x20000680) -- Read from C cache (4 bytes @ 0x20000694) -- Data:  F1 0B 00 08  returns 0x00 (0001ms, 1159ms total)
T3C40 017:220 JLINK_ReadMem (0x08000A34, 0x003C Bytes, ...) -- CPU_ReadMem(128 bytes @ 0x08000A00) -- Updating C cache (128 bytes @ 0x08000A00) -- Read from C cache (60 bytes @ 0x08000A34) -- Data:  70 47 29 B1 21 4A D2 69 02 43 20 4B DA 61 04 E0 ...  returns 0x00 (0002ms, 1160ms total)
T3C40 017:222 JLINK_Step() -- Read from C cache (2 bytes @ 0x08000A34) -- Not simulated -- CPU_WriteMem(4 bytes @ 0xE0002008) -- CPU_WriteMem(4 bytes @ 0xE000200C) -- CPU_WriteMem(4 bytes @ 0xE0002010) -- CPU_WriteMem(4 bytes @ 0xE0002014) -- CPU_WriteMem(4 bytes @ 0xE0002018) -- CPU_WriteMem(4 bytes @ 0xE000201C)  returns 0x00 (0012ms, 1162ms total)
T3C40 017:234 JLINK_ReadReg(R15)  returns 0x08000B9A (0000ms, 1174ms total)
T3C40 017:234 JLINK_ReadReg(XPSR)  returns 0x21000000 (0000ms, 1174ms total)
T3C40 017:234 JLINK_ReadReg(R0)  returns 0x00000008 (0000ms, 1174ms total)
T3C40 017:234 JLINK_ReadReg(R1)  returns 0x00000001 (0000ms, 1174ms total)
T3C40 017:234 JLINK_ReadReg(R2)  returns 0x00000008 (0000ms, 1174ms total)
T3C40 017:234 JLINK_ReadReg(R3)  returns 0x40021000 (0000ms, 1174ms total)
T3C40 017:234 JLINK_ReadReg(R4)  returns 0x00000000 (0000ms, 1174ms total)
T3C40 017:234 JLINK_ReadReg(R5)  returns 0x20000034 (0000ms, 1174ms total)
T3C40 017:234 JLINK_ReadReg(R6)  returns 0x00000000 (0000ms, 1174ms total)
T3C40 017:234 JLINK_ReadReg(R7)  returns 0x00000000 (0000ms, 1174ms total)
T3C40 017:234 JLINK_ReadReg(R8)  returns 0x00000000 (0000ms, 1174ms total)
T3C40 017:234 JLINK_ReadReg(R9)  returns 0x20000160 (0000ms, 1174ms total)
T3C40 017:234 JLINK_ReadReg(R10)  returns 0x08000CAC (0000ms, 1174ms total)
T3C40 017:234 JLINK_ReadReg(R11)  returns 0x00000000 (0000ms, 1174ms total)
T3C40 017:234 JLINK_ReadReg(R12)  returns 0x20000074 (0000ms, 1174ms total)
T3C40 017:234 JLINK_ReadReg(R13)  returns 0x20000690 (0000ms, 1174ms total)
T3C40 017:234 JLINK_ReadReg(R14)  returns 0x08000B9B (0000ms, 1174ms total)
T3C40 017:234 JLINK_ReadReg(R15)  returns 0x08000B9A (0000ms, 1174ms total)
T3C40 017:234 JLINK_ReadReg(XPSR)  returns 0x21000000 (0000ms, 1174ms total)
T3C40 017:234 JLINK_ReadReg(MSP)  returns 0x20000690 (0000ms, 1174ms total)
T3C40 017:234 JLINK_ReadReg(PSP)  returns 0x20000800 (0000ms, 1174ms total)
T3C40 017:234 JLINK_ReadReg(CFBP)  returns 0x00000000 (0000ms, 1174ms total)
T12BC 017:235 JLINK_ReadMem (0x20000694, 0x0004 Bytes, ...) -- CPU_ReadMem(64 bytes @ 0x20000680) -- Updating C cache (64 bytes @ 0x20000680) -- Read from C cache (4 bytes @ 0x20000694) -- Data:  F1 0B 00 08  returns 0x00 (0001ms, 1174ms total)
T12BC 017:247 JLINK_ReadMem (0x08000B9A, 0x0002 Bytes, ...) -- CPU_ReadMem(64 bytes @ 0x08000B80) -- Updating C cache (64 bytes @ 0x08000B80) -- Read from C cache (2 bytes @ 0x08000B9A) -- Data:  03 20  returns 0x00 (0001ms, 1175ms total)
T12BC 017:248 JLINK_ReadMem (0x08000B9C, 0x003C Bytes, ...) -- CPU_ReadMem(64 bytes @ 0x08000BC0) -- Updating C cache (64 bytes @ 0x08000BC0) -- Read from C cache (60 bytes @ 0x08000B9C) -- Data:  8D F8 02 00 10 20 8D F8 03 00 80 20 AD F8 00 00 ...  returns 0x00 (0002ms, 1176ms total)
T3C40 018:716 JLINK_Step() -- Read from C cache (2 bytes @ 0x08000B9A) -- Simulated  returns 0x00 (0001ms, 1178ms total)
T3C40 018:717 JLINK_ReadReg(R15)  returns 0x08000B9C (0000ms, 1179ms total)
T3C40 018:717 JLINK_ReadReg(XPSR)  returns 0x21000000 (0000ms, 1179ms total)
T3C40 018:717 JLINK_Step() -- Read from C cache (2 bytes @ 0x08000B9C) -- Not simulated -- CPU_WriteMem(4 bytes @ 0xE0002008) -- CPU_WriteMem(4 bytes @ 0xE000200C) -- CPU_WriteMem(4 bytes @ 0xE0002010) -- CPU_WriteMem(4 bytes @ 0xE0002014) -- CPU_WriteMem(4 bytes @ 0xE0002018) -- CPU_WriteMem(4 bytes @ 0xE000201C)  returns 0x00 (0012ms, 1179ms total)
T3C40 018:729 JLINK_ReadReg(R15)  returns 0x08000BA0 (0000ms, 1191ms total)
T3C40 018:729 JLINK_ReadReg(XPSR)  returns 0x21000000 (0000ms, 1191ms total)
T3C40 018:729 JLINK_ReadReg(R0)  returns 0x00000003 (0000ms, 1191ms total)
T3C40 018:729 JLINK_ReadReg(R1)  returns 0x00000001 (0000ms, 1191ms total)
T3C40 018:729 JLINK_ReadReg(R2)  returns 0x00000008 (0000ms, 1191ms total)
T3C40 018:729 JLINK_ReadReg(R3)  returns 0x40021000 (0000ms, 1191ms total)
T3C40 018:729 JLINK_ReadReg(R4)  returns 0x00000000 (0000ms, 1191ms total)
T3C40 018:729 JLINK_ReadReg(R5)  returns 0x20000034 (0000ms, 1191ms total)
T3C40 018:729 JLINK_ReadReg(R6)  returns 0x00000000 (0000ms, 1191ms total)
T3C40 018:730 JLINK_ReadReg(R7)  returns 0x00000000 (0000ms, 1191ms total)
T3C40 018:730 JLINK_ReadReg(R8)  returns 0x00000000 (0000ms, 1191ms total)
T3C40 018:730 JLINK_ReadReg(R9)  returns 0x20000160 (0000ms, 1191ms total)
T3C40 018:730 JLINK_ReadReg(R10)  returns 0x08000CAC (0000ms, 1191ms total)
T3C40 018:730 JLINK_ReadReg(R11)  returns 0x00000000 (0000ms, 1191ms total)
T3C40 018:730 JLINK_ReadReg(R12)  returns 0x20000074 (0000ms, 1191ms total)
T3C40 018:730 JLINK_ReadReg(R13)  returns 0x20000690 (0000ms, 1191ms total)
T3C40 018:730 JLINK_ReadReg(R14)  returns 0x08000B9B (0000ms, 1191ms total)
T3C40 018:730 JLINK_ReadReg(R15)  returns 0x08000BA0 (0000ms, 1191ms total)
T3C40 018:730 JLINK_ReadReg(XPSR)  returns 0x21000000 (0000ms, 1191ms total)
T3C40 018:730 JLINK_ReadReg(MSP)  returns 0x20000690 (0000ms, 1191ms total)
T3C40 018:730 JLINK_ReadReg(PSP)  returns 0x20000800 (0000ms, 1191ms total)
T3C40 018:730 JLINK_ReadReg(CFBP)  returns 0x00000000 (0000ms, 1191ms total)
T12BC 018:730 JLINK_ReadMem (0x20000694, 0x0004 Bytes, ...) -- CPU_ReadMem(64 bytes @ 0x20000680) -- Updating C cache (64 bytes @ 0x20000680) -- Read from C cache (4 bytes @ 0x20000694) -- Data:  F1 0B 00 08  returns 0x00 (0001ms, 1191ms total)
T12BC 018:732 JLINK_ReadMem (0x08000BA0, 0x003C Bytes, ...) -- CPU_ReadMem(128 bytes @ 0x08000B80) -- Updating C cache (128 bytes @ 0x08000B80) -- Read from C cache (60 bytes @ 0x08000BA0) -- Data:  10 20 8D F8 03 00 80 20 AD F8 00 00 69 46 04 48 ...  returns 0x00 (0002ms, 1192ms total)
T3C40 019:133 JLINK_Step() -- Read from C cache (2 bytes @ 0x08000BA0) -- Simulated  returns 0x00 (0000ms, 1194ms total)
T3C40 019:133 JLINK_ReadReg(R15)  returns 0x08000BA2 (0000ms, 1194ms total)
T3C40 019:133 JLINK_ReadReg(XPSR)  returns 0x21000000 (0000ms, 1194ms total)
T3C40 019:133 JLINK_Step() -- Read from C cache (2 bytes @ 0x08000BA2) -- Not simulated -- CPU_WriteMem(4 bytes @ 0xE0002008) -- CPU_WriteMem(4 bytes @ 0xE000200C) -- CPU_WriteMem(4 bytes @ 0xE0002010) -- CPU_WriteMem(4 bytes @ 0xE0002014) -- CPU_WriteMem(4 bytes @ 0xE0002018) -- CPU_WriteMem(4 bytes @ 0xE000201C)  returns 0x00 (0013ms, 1194ms total)
T3C40 019:146 JLINK_ReadReg(R15)  returns 0x08000BA6 (0000ms, 1207ms total)
T3C40 019:146 JLINK_ReadReg(XPSR)  returns 0x21000000 (0000ms, 1207ms total)
T3C40 019:146 JLINK_ReadReg(R0)  returns 0x00000010 (0000ms, 1207ms total)
T3C40 019:146 JLINK_ReadReg(R1)  returns 0x00000001 (0000ms, 1207ms total)
T3C40 019:146 JLINK_ReadReg(R2)  returns 0x00000008 (0000ms, 1207ms total)
T3C40 019:146 JLINK_ReadReg(R3)  returns 0x40021000 (0000ms, 1207ms total)
T3C40 019:146 JLINK_ReadReg(R4)  returns 0x00000000 (0000ms, 1207ms total)
T3C40 019:146 JLINK_ReadReg(R5)  returns 0x20000034 (0000ms, 1207ms total)
T3C40 019:146 JLINK_ReadReg(R6)  returns 0x00000000 (0000ms, 1207ms total)
T3C40 019:146 JLINK_ReadReg(R7)  returns 0x00000000 (0000ms, 1207ms total)
T3C40 019:146 JLINK_ReadReg(R8)  returns 0x00000000 (0000ms, 1207ms total)
T3C40 019:146 JLINK_ReadReg(R9)  returns 0x20000160 (0000ms, 1207ms total)
T3C40 019:146 JLINK_ReadReg(R10)  returns 0x08000CAC (0000ms, 1207ms total)
T3C40 019:146 JLINK_ReadReg(R11)  returns 0x00000000 (0000ms, 1207ms total)
T3C40 019:146 JLINK_ReadReg(R12)  returns 0x20000074 (0000ms, 1207ms total)
T3C40 019:146 JLINK_ReadReg(R13)  returns 0x20000690 (0000ms, 1207ms total)
T3C40 019:146 JLINK_ReadReg(R14)  returns 0x08000B9B (0000ms, 1207ms total)
T3C40 019:146 JLINK_ReadReg(R15)  returns 0x08000BA6 (0000ms, 1207ms total)
T3C40 019:146 JLINK_ReadReg(XPSR)  returns 0x21000000 (0001ms, 1207ms total)
T3C40 019:147 JLINK_ReadReg(MSP)  returns 0x20000690 (0000ms, 1208ms total)
T3C40 019:147 JLINK_ReadReg(PSP)  returns 0x20000800 (0000ms, 1208ms total)
T3C40 019:147 JLINK_ReadReg(CFBP)  returns 0x00000000 (0000ms, 1208ms total)
T12BC 019:147 JLINK_ReadMem (0x20000694, 0x0004 Bytes, ...) -- CPU_ReadMem(64 bytes @ 0x20000680) -- Updating C cache (64 bytes @ 0x20000680) -- Read from C cache (4 bytes @ 0x20000694) -- Data:  F1 0B 00 08  returns 0x00 (0002ms, 1208ms total)
T12BC 019:149 JLINK_ReadMem (0x08000BA6, 0x0002 Bytes, ...) -- CPU_ReadMem(64 bytes @ 0x08000B80) -- Updating C cache (64 bytes @ 0x08000B80) -- Read from C cache (2 bytes @ 0x08000BA6) -- Data:  80 20  returns 0x00 (0002ms, 1210ms total)
T12BC 019:151 JLINK_ReadMem (0x08000BA8, 0x003C Bytes, ...) -- CPU_ReadMem(64 bytes @ 0x08000BC0) -- Updating C cache (64 bytes @ 0x08000BC0) -- Read from C cache (60 bytes @ 0x08000BA8) -- Data:  AD F8 00 00 69 46 04 48 FF F7 7E FC 80 21 02 48 ...  returns 0x00 (0001ms, 1212ms total)
T3C40 019:603 JLINK_Step() -- Read from C cache (2 bytes @ 0x08000BA6) -- Simulated  returns 0x00 (0001ms, 1213ms total)
T3C40 019:604 JLINK_ReadReg(R15)  returns 0x08000BA8 (0000ms, 1214ms total)
T3C40 019:604 JLINK_ReadReg(XPSR)  returns 0x21000000 (0000ms, 1214ms total)
T3C40 019:604 JLINK_Step() -- Read from C cache (2 bytes @ 0x08000BA8) -- Not simulated -- CPU_WriteMem(4 bytes @ 0xE0002008) -- CPU_WriteMem(4 bytes @ 0xE000200C) -- CPU_WriteMem(4 bytes @ 0xE0002010) -- CPU_WriteMem(4 bytes @ 0xE0002014) -- CPU_WriteMem(4 bytes @ 0xE0002018) -- CPU_WriteMem(4 bytes @ 0xE000201C)  returns 0x00 (0012ms, 1214ms total)
T3C40 019:616 JLINK_ReadReg(R15)  returns 0x08000BAC (0000ms, 1226ms total)
T3C40 019:616 JLINK_ReadReg(XPSR)  returns 0x21000000 (0000ms, 1226ms total)
T3C40 019:616 JLINK_ReadReg(R0)  returns 0x00000080 (0000ms, 1226ms total)
T3C40 019:616 JLINK_ReadReg(R1)  returns 0x00000001 (0000ms, 1226ms total)
T3C40 019:616 JLINK_ReadReg(R2)  returns 0x00000008 (0000ms, 1226ms total)
T3C40 019:616 JLINK_ReadReg(R3)  returns 0x40021000 (0000ms, 1226ms total)
T3C40 019:616 JLINK_ReadReg(R4)  returns 0x00000000 (0000ms, 1226ms total)
T3C40 019:616 JLINK_ReadReg(R5)  returns 0x20000034 (0000ms, 1226ms total)
T3C40 019:616 JLINK_ReadReg(R6)  returns 0x00000000 (0000ms, 1226ms total)
T3C40 019:616 JLINK_ReadReg(R7)  returns 0x00000000 (0000ms, 1226ms total)
T3C40 019:616 JLINK_ReadReg(R8)  returns 0x00000000 (0001ms, 1226ms total)
T3C40 019:617 JLINK_ReadReg(R9)  returns 0x20000160 (0000ms, 1227ms total)
T3C40 019:617 JLINK_ReadReg(R10)  returns 0x08000CAC (0000ms, 1227ms total)
T3C40 019:617 JLINK_ReadReg(R11)  returns 0x00000000 (0000ms, 1227ms total)
T3C40 019:617 JLINK_ReadReg(R12)  returns 0x20000074 (0000ms, 1227ms total)
T3C40 019:617 JLINK_ReadReg(R13)  returns 0x20000690 (0000ms, 1227ms total)
T3C40 019:617 JLINK_ReadReg(R14)  returns 0x08000B9B (0000ms, 1227ms total)
T3C40 019:617 JLINK_ReadReg(R15)  returns 0x08000BAC (0000ms, 1227ms total)
T3C40 019:617 JLINK_ReadReg(XPSR)  returns 0x21000000 (0000ms, 1227ms total)
T3C40 019:617 JLINK_ReadReg(MSP)  returns 0x20000690 (0000ms, 1227ms total)
T3C40 019:617 JLINK_ReadReg(PSP)  returns 0x20000800 (0000ms, 1227ms total)
T3C40 019:617 JLINK_ReadReg(CFBP)  returns 0x00000000 (0000ms, 1227ms total)
T12BC 019:617 JLINK_ReadMem (0x20000694, 0x0004 Bytes, ...) -- CPU_ReadMem(64 bytes @ 0x20000680) -- Updating C cache (64 bytes @ 0x20000680) -- Read from C cache (4 bytes @ 0x20000694) -- Data:  F1 0B 00 08  returns 0x00 (0001ms, 1227ms total)
T12BC 019:619 JLINK_ReadMem (0x08000BAC, 0x003C Bytes, ...) -- CPU_ReadMem(128 bytes @ 0x08000B80) -- Updating C cache (128 bytes @ 0x08000B80) -- Read from C cache (60 bytes @ 0x08000BAC) -- Data:  69 46 04 48 FF F7 7E FC 80 21 02 48 FF F7 25 FD ...  returns 0x00 (0002ms, 1228ms total)
T3C40 020:588 JLINK_Step() -- Read from C cache (2 bytes @ 0x08000BAC) -- Not simulated -- CPU_WriteMem(4 bytes @ 0xE0002008) -- CPU_WriteMem(4 bytes @ 0xE000200C) -- CPU_WriteMem(4 bytes @ 0xE0002010) -- CPU_WriteMem(4 bytes @ 0xE0002014) -- CPU_WriteMem(4 bytes @ 0xE0002018) -- CPU_WriteMem(4 bytes @ 0xE000201C)  returns 0x00 (0012ms, 1230ms total)
T3C40 020:600 JLINK_ReadReg(R15)  returns 0x08000BAE (0000ms, 1242ms total)
T3C40 020:600 JLINK_ReadReg(XPSR)  returns 0x21000000 (0000ms, 1242ms total)
T3C40 020:600 JLINK_Step() -- CPU_ReadMem(64 bytes @ 0x08000B80) -- Updating C cache (64 bytes @ 0x08000B80) -- Read from C cache (2 bytes @ 0x08000BAE) -- Not simulated -- CPU_WriteMem(4 bytes @ 0xE0002008) -- CPU_WriteMem(4 bytes @ 0xE000200C) -- CPU_WriteMem(4 bytes @ 0xE0002010) -- CPU_WriteMem(4 bytes @ 0xE0002014) -- CPU_WriteMem(4 bytes @ 0xE0002018) -- CPU_WriteMem(4 bytes @ 0xE000201C)  returns 0x00 (0013ms, 1242ms total)
T3C40 020:613 JLINK_ReadReg(R15)  returns 0x08000BB0 (0000ms, 1255ms total)
T3C40 020:613 JLINK_ReadReg(XPSR)  returns 0x21000000 (0000ms, 1255ms total)
T3C40 020:614 JLINK_Step() -- CPU_ReadMem(64 bytes @ 0x08000B80) -- Updating C cache (64 bytes @ 0x08000B80) -- Read from C cache (2 bytes @ 0x08000BB0) -- Not simulated -- CPU_WriteMem(4 bytes @ 0xE0002008) -- CPU_WriteMem(4 bytes @ 0xE000200C) -- CPU_WriteMem(4 bytes @ 0xE0002010) -- CPU_WriteMem(4 bytes @ 0xE0002014) -- CPU_WriteMem(4 bytes @ 0xE0002018) -- CPU_WriteMem(4 bytes @ 0xE000201C)  returns 0x00 (0012ms, 1255ms total)
T3C40 020:626 JLINK_ReadReg(R15)  returns 0x080004B0 (0000ms, 1267ms total)
T3C40 020:626 JLINK_ReadReg(XPSR)  returns 0x21000000 (0000ms, 1267ms total)
T3C40 020:626 JLINK_ReadReg(R0)  returns 0x40010C00 (0000ms, 1267ms total)
T3C40 020:626 JLINK_ReadReg(R1)  returns 0x20000690 (0000ms, 1267ms total)
T3C40 020:626 JLINK_ReadReg(R2)  returns 0x00000008 (0000ms, 1267ms total)
T3C40 020:626 JLINK_ReadReg(R3)  returns 0x40021000 (0000ms, 1267ms total)
T3C40 020:626 JLINK_ReadReg(R4)  returns 0x00000000 (0000ms, 1267ms total)
T3C40 020:626 JLINK_ReadReg(R5)  returns 0x20000034 (0000ms, 1267ms total)
T3C40 020:626 JLINK_ReadReg(R6)  returns 0x00000000 (0000ms, 1267ms total)
T3C40 020:626 JLINK_ReadReg(R7)  returns 0x00000000 (0000ms, 1267ms total)
T3C40 020:626 JLINK_ReadReg(R8)  returns 0x00000000 (0000ms, 1267ms total)
T3C40 020:626 JLINK_ReadReg(R9)  returns 0x20000160 (0000ms, 1267ms total)
T3C40 020:626 JLINK_ReadReg(R10)  returns 0x08000CAC (0000ms, 1267ms total)
T3C40 020:627 JLINK_ReadReg(R11)  returns 0x00000000 (0000ms, 1268ms total)
T3C40 020:627 JLINK_ReadReg(R12)  returns 0x20000074 (0000ms, 1268ms total)
T3C40 020:627 JLINK_ReadReg(R13)  returns 0x20000690 (0000ms, 1268ms total)
T3C40 020:627 JLINK_ReadReg(R14)  returns 0x08000BB5 (0000ms, 1268ms total)
T3C40 020:627 JLINK_ReadReg(R15)  returns 0x080004B0 (0000ms, 1268ms total)
T3C40 020:627 JLINK_ReadReg(XPSR)  returns 0x21000000 (0000ms, 1268ms total)
T3C40 020:627 JLINK_ReadReg(MSP)  returns 0x20000690 (0000ms, 1268ms total)
T3C40 020:627 JLINK_ReadReg(PSP)  returns 0x20000800 (0000ms, 1268ms total)
T3C40 020:627 JLINK_ReadReg(CFBP)  returns 0x00000000 (0000ms, 1268ms total)
T12BC 020:627 JLINK_ReadMem (0x20000694, 0x0004 Bytes, ...) -- CPU_ReadMem(64 bytes @ 0x20000680) -- Updating C cache (64 bytes @ 0x20000680) -- Read from C cache (4 bytes @ 0x20000694) -- Data:  F1 0B 00 08  returns 0x00 (0001ms, 1268ms total)
T12BC 020:628 JLINK_ReadMem (0x00000000, 0x0004 Bytes, ...)
                JLINK_ReadMemHW(0x00000000, 0x0004 Bytes, ...) -- CPU_ReadMem(4 bytes @ 0x00000000) -- Data:  98 06 00 20  returns 0x00 (0001ms, 0000ms total)
                JLINK_ReadMemHW(0x08000000, 0x0004 Bytes, ...) -- CPU_ReadMem(4 bytes @ 0x08000000) -- Data:  98 06 00 20  returns 0x00 (0001ms, 0001ms total)
                JLINK_WriteMemHW(0x00000000, 0x0004 Bytes, ...) -- Data:  09 00 01 00 -- CPU_WriteMem(4 bytes @ 0x00000000)  returns 0x04 (0000ms, 0002ms total)
                JLINK_ReadMemHW(0x00000000, 0x0004 Bytes, ...) -- CPU_ReadMem(4 bytes @ 0x00000000) -- Data:  98 06 00 20  returns 0x00 (0001ms, 0002ms total)
               -- MA0 is in flash -- Unmirror addr 0x00000000 -- CPU_ReadMem(64 bytes @ 0x08000000) -- Updating C cache (64 bytes @ 0x08000000) -- Read from C cache (4 bytes @ 0x08000000) -- Data:  98 06 00 20  returns 0x00 (0004ms, 1269ms total)
T12BC 020:639 JLINK_ReadMem (0x080004B0, 0x003C Bytes, ...) -- CPU_ReadMem(128 bytes @ 0x08000480) -- Updating C cache (128 bytes @ 0x08000480) -- Read from C cache (60 bytes @ 0x080004B0) -- Data:  2D E9 F0 41 02 46 00 25 00 26 00 20 00 23 00 24 ...  returns 0x00 (0002ms, 1273ms total)
T3C40 021:292 JLINK_Step() -- Read from C cache (2 bytes @ 0x080004B0) -- Not simulated -- CPU_WriteMem(4 bytes @ 0xE0002008) -- CPU_WriteMem(4 bytes @ 0xE000200C) -- CPU_WriteMem(4 bytes @ 0xE0002010) -- CPU_WriteMem(4 bytes @ 0xE0002014) -- CPU_WriteMem(4 bytes @ 0xE0002018) -- CPU_WriteMem(4 bytes @ 0xE000201C) -- Invalidate MA0 status  returns 0x00 (0011ms, 1275ms total)
T3C40 021:303 JLINK_ReadReg(R15)  returns 0x080004B4 (0000ms, 1286ms total)
T3C40 021:303 JLINK_ReadReg(XPSR)  returns 0x21000000 (0001ms, 1286ms total)
T3C40 021:304 JLINK_Step() -- CPU_ReadMem(64 bytes @ 0x08000480) -- Updating C cache (64 bytes @ 0x08000480) -- Read from C cache (2 bytes @ 0x080004B4) -- Not simulated -- CPU_WriteMem(4 bytes @ 0xE0002008) -- CPU_WriteMem(4 bytes @ 0xE000200C) -- CPU_WriteMem(4 bytes @ 0xE0002010) -- CPU_WriteMem(4 bytes @ 0xE0002014) -- CPU_WriteMem(4 bytes @ 0xE0002018) -- CPU_WriteMem(4 bytes @ 0xE000201C)  returns 0x00 (0012ms, 1287ms total)
T3C40 021:316 JLINK_ReadReg(R15)  returns 0x080004B6 (0000ms, 1299ms total)
T3C40 021:316 JLINK_ReadReg(XPSR)  returns 0x21000000 (0000ms, 1299ms total)
T3C40 021:316 JLINK_ReadReg(R0)  returns 0x40010C00 (0000ms, 1299ms total)
T3C40 021:316 JLINK_ReadReg(R1)  returns 0x20000690 (0000ms, 1299ms total)
T3C40 021:317 JLINK_ReadReg(R2)  returns 0x40010C00 (0000ms, 1300ms total)
T3C40 021:317 JLINK_ReadReg(R3)  returns 0x40021000 (0000ms, 1300ms total)
T3C40 021:317 JLINK_ReadReg(R4)  returns 0x00000000 (0000ms, 1300ms total)
T3C40 021:317 JLINK_ReadReg(R5)  returns 0x20000034 (0000ms, 1300ms total)
T3C40 021:317 JLINK_ReadReg(R6)  returns 0x00000000 (0000ms, 1300ms total)
T3C40 021:317 JLINK_ReadReg(R7)  returns 0x00000000 (0000ms, 1300ms total)
T3C40 021:317 JLINK_ReadReg(R8)  returns 0x00000000 (0000ms, 1300ms total)
T3C40 021:317 JLINK_ReadReg(R9)  returns 0x20000160 (0000ms, 1300ms total)
T3C40 021:317 JLINK_ReadReg(R10)  returns 0x08000CAC (0000ms, 1300ms total)
T3C40 021:317 JLINK_ReadReg(R11)  returns 0x00000000 (0000ms, 1300ms total)
T3C40 021:317 JLINK_ReadReg(R12)  returns 0x20000074 (0000ms, 1300ms total)
T3C40 021:317 JLINK_ReadReg(R13)  returns 0x20000678 (0000ms, 1300ms total)
T3C40 021:317 JLINK_ReadReg(R14)  returns 0x08000BB5 (0000ms, 1300ms total)
T3C40 021:317 JLINK_ReadReg(R15)  returns 0x080004B6 (0000ms, 1300ms total)
T3C40 021:317 JLINK_ReadReg(XPSR)  returns 0x21000000 (0000ms, 1300ms total)
T3C40 021:317 JLINK_ReadReg(MSP)  returns 0x20000678 (0000ms, 1300ms total)
T3C40 021:317 JLINK_ReadReg(PSP)  returns 0x20000800 (0000ms, 1300ms total)
T3C40 021:317 JLINK_ReadReg(CFBP)  returns 0x00000000 (0000ms, 1300ms total)
T12BC 021:318 JLINK_ReadMem (0x2000068C, 0x0004 Bytes, ...) -- CPU_ReadMem(64 bytes @ 0x20000680) -- Updating C cache (64 bytes @ 0x20000680) -- Read from C cache (4 bytes @ 0x2000068C) -- Data:  B5 0B 00 08  returns 0x00 (0002ms, 1300ms total)
T12BC 021:320 JLINK_ReadMem (0x20000678, 0x0004 Bytes, ...) -- CPU_ReadMem(64 bytes @ 0x20000640) -- Updating C cache (64 bytes @ 0x20000640) -- Read from C cache (4 bytes @ 0x20000678) -- Data:  00 00 00 00  returns 0x00 (0001ms, 1302ms total)
T12BC 021:321 JLINK_ReadMem (0x2000067C, 0x0004 Bytes, ...) -- Read from C cache (4 bytes @ 0x2000067C) -- Data:  34 00 00 20  returns 0x00 (0000ms, 1303ms total)
T12BC 021:321 JLINK_ReadMem (0x20000680, 0x0004 Bytes, ...) -- Read from C cache (4 bytes @ 0x20000680) -- Data:  00 00 00 00  returns 0x00 (0000ms, 1303ms total)
T12BC 021:321 JLINK_ReadMem (0x20000684, 0x0004 Bytes, ...) -- Read from C cache (4 bytes @ 0x20000684) -- Data:  00 00 00 00  returns 0x00 (0000ms, 1303ms total)
T12BC 021:321 JLINK_ReadMem (0x20000688, 0x0004 Bytes, ...) -- Read from C cache (4 bytes @ 0x20000688) -- Data:  00 00 00 00  returns 0x00 (0000ms, 1303ms total)
T12BC 021:321 JLINK_ReadMem (0x20000694, 0x0004 Bytes, ...) -- Read from C cache (4 bytes @ 0x20000694) -- Data:  F1 0B 00 08  returns 0x00 (0000ms, 1303ms total)
T12BC 021:322 JLINK_ReadMem (0x00000000, 0x0004 Bytes, ...)
                JLINK_ReadMemHW(0x00000000, 0x0004 Bytes, ...) -- CPU_ReadMem(4 bytes @ 0x00000000) -- Data:  98 06 00 20  returns 0x00 (0001ms, 0000ms total)
                JLINK_ReadMemHW(0x08000000, 0x0004 Bytes, ...) -- CPU_ReadMem(4 bytes @ 0x08000000) -- Data:  98 06 00 20  returns 0x00 (0000ms, 0001ms total)
                JLINK_WriteMemHW(0x00000000, 0x0004 Bytes, ...) -- Data:  09 00 01 00 -- CPU_WriteMem(4 bytes @ 0x00000000)  returns 0x04 (0001ms, 0001ms total)
                JLINK_ReadMemHW(0x00000000, 0x0004 Bytes, ...) -- CPU_ReadMem(4 bytes @ 0x00000000) -- Data:  98 06 00 20  returns 0x00 (0001ms, 0002ms total)
               -- MA0 is in flash -- Unmirror addr 0x00000000 -- CPU_ReadMem(64 bytes @ 0x08000000) -- Updating C cache (64 bytes @ 0x08000000) -- Read from C cache (4 bytes @ 0x08000000) -- Data:  98 06 00 20  returns 0x00 (0004ms, 1303ms total)
T3C40 022:796 JLINK_ReadMem (0x080004B6, 0x0002 Bytes, ...) -- CPU_ReadMem(64 bytes @ 0x08000480) -- Updating C cache (64 bytes @ 0x08000480) -- Read from C cache (2 bytes @ 0x080004B6) -- Data:  00 25  returns 0x00 (0002ms, 1307ms total)
T3C40 022:798 JLINK_ReadMem (0x080004B8, 0x003C Bytes, ...) -- CPU_ReadMem(64 bytes @ 0x080004C0) -- Updating C cache (64 bytes @ 0x080004C0) -- Read from C cache (60 bytes @ 0x080004B8) -- Data:  00 26 00 20 00 23 00 24 00 27 91 F8 03 C0 0C F0 ...  returns 0x00 (0001ms, 1309ms total)
